# HZ S RI R 50
2000000000 0.1661994755268097 -0.010488680563867092 -0.08924632519483566 0.07073510438203812 0 0 0 0
2010000000 0.16521970927715302 -0.01612420193850994 -0.08273284137248993 0.07887853682041168 0 0 0 0
2020000000 0.16279567778110504 -0.02060866169631481 -0.07581949234008789 0.08568146079778671 0 0 0 0
2030000000 0.15927976369857788 -0.023714959621429443 -0.06875719130039215 0.09209559112787247 0 0 0 0
2040000000 0.1540045440196991 -0.029302220791578293 -0.05835913494229317 0.09919343143701553 0 0 0 0
2050000000 0.1483313888311386 -0.031551845371723175 -0.05016402527689934 0.10368960350751877 0 0 0 0
2060000000 0.14192070066928864 -0.03322454169392586 -0.04091046005487442 0.10838080942630768 0 0 0 0
2070000000 0.1351909041404724 -0.033727407455444336 -0.030926255509257317 0.112092524766922 0 0 0 0
2080000000 0.12797856330871582 -0.03140735253691673 -0.021034106612205505 0.11437582224607468 0 0 0 0
2090000000 0.12041102349758148 -0.02969544380903244 -0.010237446054816246 0.11646515130996704 0 0 0 0
2100000000 0.11336545646190643 -0.025608355179429054 0.000990288332104683 0.1171276718378067 0 0 0 0
2110000000 0.10676299780607224 -0.020117036998271942 0.011841078288853168 0.11687669157981873 0 0 0 0
2120000000 0.1014045774936676 -0.013407489284873009 0.022205647081136703 0.11561380326747894 0 0 0 0
2130000000 0.09696748107671738 -0.005185512825846672 0.03230378031730652 0.11362850666046143 0 0 0 0
2140000000 0.09377449750900269 0.0031048189848661423 0.043441034853458405 0.10997997969388962 0 0 0 0
2150000000 0.09225913882255554 0.012167501263320446 0.05377068370580673 0.10579148679971695 0 0 0 0
2160000000 0.09246335923671722 0.021647410467267036 0.0638280063867569 0.10021699965000153 0 0 0 0
2170000000 0.09397957473993301 0.03060935065150261 0.07261214405298233 0.09410522878170013 0 0 0 0
2180000000 0.09690272063016891 0.03985048457980156 0.08052513748407364 0.08774247765541077 0 0 0 0
2190000000 0.10204310715198517 0.0468820296227932 0.08914227038621902 0.07900658249855042 0 0 0 0
2200000000 0.1076865866780281 0.05388975888490677 0.09590008854866028 0.07089971750974655 0 0 0 0
2210000000 0.11398636549711227 0.059472743421792984 0.10178881883621216 0.06196935102343559 0 0 0 0
2220000000 0.12161768972873688 0.06229415908455849 0.10750483721494675 0.05156045779585838 0 0 0 0
2230000000 0.12973488867282867 0.0649392157793045 0.11171494424343109 0.042191460728645325 0 0 0 0
2240000000 0.13718022406101227 0.06504879146814346 0.11510930210351944 0.031453702598810196 0 0 0 0
2250000000 0.14452244341373444 0.06355828046798706 0.11758251488208771 0.020523402839899063 0 0 0 0
2260000000 0.1511807143688202 0.060546357184648514 0.1188906878232956 0.009591149166226387 0 0 0 0
2270000000 0.15669557452201843 0.05618813633918762 0.11915713548660278 -0.0014845728874206543 0 0 0 0
2280000000 0.1611458957195282 0.05021233111619949 0.11855196207761765 -0.012340136803686619 0 0 0 0
2290000000 0.16375494003295898 0.04353548586368561 0.11695415526628494 -0.02322332188487053 0 0 0 0
2300000000 0.1647670567035675 0.03643401339650154 0.11419125646352768 -0.03456705063581467 0 0 0 0
2310000000 0.16387535631656647 0.028950462117791176 0.11070824414491653 -0.044327057898044586 0 0 0 0
2320000000 0.16118237376213074 0.021707097068428993 0.10620483011007309 -0.05460238456726074 0 0 0 0
2330000000 0.15666598081588745 0.015353084541857243 0.10101040452718735 -0.06385204941034317 0 0 0 0
2340000000 0.15060757100582123 0.008661044761538506 0.09482648968696594 -0.07410861551761627 0 0 0 0
2350000000 0.14319831132888794 0.0039037447422742844 0.08639906346797943 -0.08224689215421677 0 0 0 0
2360000000 0.13467825949192047 0.0012925723567605019 0.07935843616724014 -0.08915718644857407 0 0 0 0
2370000000 0.12476047873497009 -0.0010674986988306046 0.06999707221984863 -0.09656944125890732 0 0 0 0
2380000000 0.11491114646196365 -0.000638844445347786 0.06079249083995819 -0.10235138237476349 0 0 0 0
2390000000 0.10503868758678436 0.0017940113320946693 0.05083011835813522 -0.10750007629394531 0 0 0 0
2400000000 0.09539282321929932 0.005740155465900898 0.03952699154615402 -0.11151295900344849 0 0 0 0
2410000000 0.08652164041996002 0.011703313328325748 0.02963658608496189 -0.11445286124944687 0 0 0 0
2420000000 0.0789705216884613 0.019255351275205612 0.019302384927868843 -0.11631444096565247 0 0 0 0
2430000000 0.0728171318769455 0.02729901671409607 0.00722372904419899 -0.1174667552113533 0 0 0 0
2440000000 0.06814795732498169 0.03695055842399597 -0.0033126315101981163 -0.11700168997049332 0 0 0 0
2450000000 0.06528109312057495 0.0469813235104084 -0.014579657465219498 -0.1157074049115181 0 0 0 0
2460000000 0.06403990089893341 0.05725107714533806 -0.023760702461004257 -0.11366827040910721 0 0 0 0
2470000000 0.06511889398097992 0.06651533395051956 -0.03511660173535347 -0.10990206152200699 0 0 0 0
2480000000 0.06794423609972 0.07529861479997635 -0.04468177258968353 -0.10579676926136017 0 0 0 0
2490000000 0.07162629812955856 0.0835471898317337 -0.05336131900548935 -0.10098426789045334 0 0 0 0
2500000000 0.07743023335933685 0.08969683200120926 -0.06278015673160553 -0.09491737931966782 0 0 0 0
2510000000 0.08308248221874237 0.09512345492839813 -0.07119251787662506 -0.08795718848705292 0 0 0 0
2520000000 0.0901351049542427 0.0984153226017952 -0.07857969403266907 -0.08060469478368759 0 0 0 0
2530000000 0.09687305986881256 0.09905117750167847 -0.08490562438964844 -0.07266359031200409 0 0 0 0
2540000000 0.10311036556959152 0.09919397532939911 -0.09021983295679092 -0.06508874148130417 0 0 0 0
2550000000 0.11016720533370972 0.09637866914272308 -0.09575552493333817 -0.05558603256940842 0 0 0 0
2560000000 0.11420287936925888 0.09395652264356613 -0.09923906624317169 -0.04760440066456795 0 0 0 0
2570000000 0.11908531188964844 0.08830128610134125 -0.10284192860126495 -0.03772471845149994 0 0 0 0
2580000000 0.12147470563650131 0.08237870782613754 -0.10517510026693344 -0.02859429083764553 0 0 0 0
2590000000 0.12281613051891327 0.07536303251981735 -0.10683046281337738 -0.018857518211007118 0 0 0 0
2600000000 0.12178915739059448 0.06876739114522934 -0.10746044665575027 -0.00933223869651556 0 0 0 0
2610000000 0.11872951686382294 0.06321027129888535 -0.10718224197626114 -0.0012156330049037933 0 0 0 0
2620000000 0.11532638221979141 0.055510442703962326 -0.10624033212661743 0.009200003929436207 0 0 0 0
2630000000 0.10974420607089996 0.050097592175006866 -0.10460320115089417 0.018066255375742912 0 0 0 0
2640000000 0.10270407795906067 0.04483621567487717 -0.10213969647884369 0.02661154791712761 0 0 0 0
2650000000 0.09519730508327484 0.04156169667840004 -0.09876789152622223 0.03550451993942261 0 0 0 0
2660000000 0.08637963235378265 0.040289558470249176 -0.09519654512405396 0.042964138090610504 0 0 0 0
2670000000 0.07791972905397415 0.03930284455418587 -0.09031711518764496 0.050972968339920044 0 0 0 0
2680000000 0.06880483776330948 0.04048189893364906 -0.08541837334632874 0.05839892104268074 0 0 0 0
2690000000 0.06031810864806175 0.04271651804447174 -0.07972410321235657 0.06490955501794815 0 0 0 0
2700000000 0.05206342041492462 0.04704689607024193 -0.07401487231254578 0.07089697569608688 0 0 0 0
2710000000 0.04505106061697006 0.05095220357179642 -0.06735754013061523 0.07591964304447174 0 0 0 0
2720000000 0.039302531629800797 0.05711039900779724 -0.060077812522649765 0.08112985640764236 0 0 0 0
2730000000 0.034670621156692505 0.06368639320135117 -0.052758246660232544 0.08589112758636475 0 0 0 0
2740000000 0.03056924231350422 0.07006324082612991 -0.046355508267879486 0.08931868523359299 0 0 0 0
2750000000 0.029052792116999626 0.0765133798122406 -0.03808765113353729 0.09210533648729324 0 0 0 0
2760000000 0.027802733704447746 0.08238409459590912 -0.031058697029948235 0.09407544881105423 0 0 0 0
2770000000 0.02898188680410385 0.08911237865686417 -0.02212914451956749 0.09709963202476501 0 0 0 0
2780000000 0.02912846952676773 0.09356929361820221 -0.015114133246243 0.09768998622894287 0 0 0 0
2790000000 0.030930256471037865 0.09718868136405945 -0.007263794541358948 0.0980677604675293 0 0 0 0
2800000000 0.03338395059108734 0.10091467201709747 0.0005027120932936668 0.09901971369981766 0 0 0 0
2810000000 0.03664381057024002 0.10184045135974884 0.008559251204133034 0.09813161939382553 0 0 0 0
2820000000 0.038403090089559555 0.10209713876247406 0.015722166746854782 0.09658659994602203 0 0 0 0
2830000000 0.04157501086592674 0.1026613712310791 0.02449454367160797 0.0958089753985405 0 0 0 0
2840000000 0.04308994114398956 0.10080337524414062 0.031240930780768394 0.09343968331813812 0 0 0 0
2850000000 0.04387563467025757 0.09871730953454971 0.03816260024905205 0.09078063815832138 0 0 0 0
2860000000 0.04509977251291275 0.09618105739355087 0.04520951211452484 0.08816884458065033 0 0 0 0
2870000000 0.04474452883005142 0.09290548413991928 0.05270903557538986 0.08410950750112534 0 0 0 0
2880000000 0.0427967831492424 0.08971939235925674 0.05889864265918732 0.08004054427146912 0 0 0 0
2890000000 0.041415318846702576 0.08633481711149216 0.06556078046560287 0.07533299922943115 0 0 0 0
2900000000 0.03822719305753708 0.08338667452335358 0.07148859649896622 0.0705249086022377 0 0 0 0
2910000000 0.035215821117162704 0.08027361333370209 0.07715260237455368 0.06501119583845139 0 0 0 0
2920000000 0.0306031946092844 0.0788799300789833 0.0827254131436348 0.058939363807439804 0 0 0 0
2930000000 0.026391630992293358 0.07682349532842636 0.08768626302480698 0.052290815860033035 0 0 0 0
2940000000 0.021555380895733833 0.0754472091794014 0.09228026866912842 0.045250795781612396 0 0 0 0
2950000000 0.016749544069170952 0.07518725097179413 0.09611924737691879 0.0382295697927475 0 0 0 0
2960000000 0.01292390190064907 0.07585837692022324 0.09974982589483261 0.030605792999267578 0 0 0 0
2970000000 0.007976271212100983 0.07644587010145187 0.10267307609319687 0.022678731009364128 0 0 0 0
2980000000 0.004022267647087574 0.07813794165849686 0.10491106659173965 0.014403579756617546 0 0 0 0
2990000000 0.00045069586485624313 0.07936757057905197 0.10671170055866241 0.006236891262233257 0 0 0 0
3000000000 -0.001561674289405346 0.08071950078010559 0.10791760683059692 -0.003365779295563698 0 0 0 0
