# HZ S RI R 50
2000000000 0.10770067572593689 -0.06513825058937073 0.6886005997657776 -0.1781957894563675 0 0 0 0
2010000000 0.09469959884881973 -0.054861776530742645 0.6688891053199768 -0.24643903970718384 0 0 0 0
2020000000 0.08458750694990158 -0.04119810089468956 0.6421769857406616 -0.3113335072994232 0 0 0 0
2030000000 0.07791020721197128 -0.025951117277145386 0.606703519821167 -0.377824991941452 0 0 0 0
2040000000 0.07483523339033127 -0.009525242261588573 0.5666914582252502 -0.4340900480747223 0 0 0 0
2050000000 0.07653005421161652 0.006591728888452053 0.5251817107200623 -0.4852425754070282 0 0 0 0
2060000000 0.08162190765142441 0.021719414740800858 0.4730587899684906 -0.5381993055343628 0 0 0 0
2070000000 0.08961406350135803 0.03484172374010086 0.41952282190322876 -0.5822045803070068 0 0 0 0
2080000000 0.10034340620040894 0.04492563754320145 0.358004093170166 -0.6219003200531006 0 0 0 0
2090000000 0.11240588873624802 0.05233904719352722 0.2976360023021698 -0.6531000137329102 0 0 0 0
2100000000 0.12534509599208832 0.055276576429605484 0.23170439898967743 -0.6799736618995667 0 0 0 0
2110000000 0.1377357542514801 0.05551174655556679 0.16417944431304932 -0.6979909539222717 0 0 0 0
2120000000 0.14943797886371613 0.05173569545149803 0.09104955196380615 -0.7120751738548279 0 0 0 0
2130000000 0.15919286012649536 0.04541059210896492 0.018003808334469795 -0.717565655708313 0 0 0 0
2140000000 0.16597014665603638 0.0371883250772953 -0.04891064763069153 -0.7173272967338562 0 0 0 0
2150000000 0.1698232889175415 0.027046285569667816 -0.12278373539447784 -0.7108386754989624 0 0 0 0
2160000000 0.1705252081155777 0.016664676368236542 -0.195553719997406 -0.6943742632865906 0 0 0 0
2170000000 0.1679123491048813 0.006932856515049934 -0.2592970132827759 -0.6755728125572205 0 0 0 0
2180000000 0.16222095489501953 -0.0018791360780596733 -0.3258107900619507 -0.6481845378875732 0 0 0 0
2190000000 0.15383076667785645 -0.008815531618893147 -0.39082491397857666 -0.6120942234992981 0 0 0 0
2200000000 0.14338526129722595 -0.013637403957545757 -0.45204973220825195 -0.5701870322227478 0 0 0 0
2210000000 0.1318950653076172 -0.014493878930807114 -0.5079441070556641 -0.5239726901054382 0 0 0 0
2220000000 0.12004400044679642 -0.012601032853126526 -0.5594017505645752 -0.4724738597869873 0 0 0 0
2230000000 0.10875046253204346 -0.007042575627565384 -0.6053449511528015 -0.41026240587234497 0 0 0 0
2240000000 0.09899861365556717 0.001610361970961094 -0.6417961716651917 -0.35169899463653564 0 0 0 0
2250000000 0.09175572544336319 0.011642977595329285 -0.6767907738685608 -0.2806801497936249 0 0 0 0
2260000000 0.08708027750253677 0.02437874861061573 -0.70171058177948 -0.21104681491851807 0 0 0 0
2270000000 0.08555160462856293 0.037649404257535934 -0.7187908291816711 -0.13898049294948578 0 0 0 0
2280000000 0.08773552626371384 0.051125191152095795 -0.7288333177566528 -0.06590322405099869 0 0 0 0
2290000000 0.09299882501363754 0.06368523091077805 -0.7305422425270081 0.008435488678514957 0 0 0 0
2300000000 0.10130289942026138 0.07371640205383301 -0.7243797183036804 0.0842379704117775 0 0 0 0
2310000000 0.11179783195257187 0.08144443482160568 -0.7109913229942322 0.15533564984798431 0 0 0 0
2320000000 0.12464543431997299 0.08505256474018097 -0.6890974044799805 0.23012207448482513 0 0 0 0
2330000000 0.1363489031791687 0.08690451830625534 -0.6633491516113281 0.29265764355659485 0 0 0 0
2340000000 0.14850784838199615 0.08488377928733826 -0.632318913936615 0.3591689467430115 0 0 0 0
2350000000 0.1609734445810318 0.07689797878265381 -0.5861452221870422 0.42078372836112976 0 0 0 0
2360000000 0.16964221000671387 0.06814751774072647 -0.5435001254081726 0.4748091995716095 0 0 0 0
2370000000 0.17603270709514618 0.054943233728408813 -0.488871693611145 0.5282675623893738 0 0 0 0
2380000000 0.1788058876991272 0.04163297265768051 -0.4350210130214691 0.5724163055419922 0 0 0 0
2390000000 0.1773001253604889 0.02793804183602333 -0.37740275263786316 0.6109360456466675 0 0 0 0
2400000000 0.17188052833080292 0.012097924947738647 -0.3070529103279114 0.6449381113052368 0 0 0 0
2410000000 0.16248838603496552 -0.0015615615993738174 -0.24272006750106812 0.6727918982505798 0 0 0 0
2420000000 0.1493995189666748 -0.012883699499070644 -0.17255519330501556 0.6931664943695068 0 0 0 0
2430000000 0.133090540766716 -0.020891213789582253 -0.10211633890867233 0.7064651250839233 0 0 0 0
2440000000 0.11491937190294266 -0.024592462927103043 -0.032675083726644516 0.7100489735603333 0 0 0 0
2450000000 0.095246821641922 -0.0248353723436594 0.04341712221503258 0.7081024050712585 0 0 0 0
2460000000 0.07520651072263718 -0.020238330587744713 0.1183379739522934 0.695740282535553 0 0 0 0
2470000000 0.056625835597515106 -0.010871523059904575 0.18694688379764557 0.6795954704284668 0 0 0 0
2480000000 0.04043736681342125 0.0032479511573910713 0.2496967911720276 0.6553647518157959 0 0 0 0
2490000000 0.027768656611442566 0.02051626518368721 0.3131997287273407 0.6233544945716858 0 0 0 0
2500000000 0.01938762329518795 0.04047586768865585 0.37390273809432983 0.58479243516922 0 0 0 0
2510000000 0.015606340952217579 0.06164390966296196 0.43658143281936646 0.5349965691566467 0 0 0 0
2520000000 0.016322948038578033 0.08342844992876053 0.48249122500419617 0.489223450422287 0 0 0 0
2530000000 0.022880615666508675 0.10285575687885284 0.526108980178833 0.43245452642440796 0 0 0 0
2540000000 0.03338727727532387 0.12065000832080841 0.5619897842407227 0.3769644498825073 0 0 0 0
2550000000 0.04776792600750923 0.13516531884670258 0.5925174355506897 0.31821608543395996 0 0 0 0
2560000000 0.0647943839430809 0.14511241018772125 0.6179677248001099 0.2535732388496399 0 0 0 0
2570000000 0.0829901397228241 0.15082791447639465 0.6335126161575317 0.19558663666248322 0 0 0 0
2580000000 0.1029086485505104 0.15114359557628632 0.6453712582588196 0.13462471961975098 0 0 0 0
2590000000 0.12271392345428467 0.14645427465438843 0.6516321897506714 0.0703614130616188 0 0 0 0
2600000000 0.13856343924999237 0.1372324675321579 0.6515170335769653 0.009706355631351471 0 0 0 0
2610000000 0.15279428660869598 0.12341801822185516 0.6458674073219299 -0.05358635261654854 0 0 0 0
2620000000 0.16290771961212158 0.10641710460186005 0.6359039545059204 -0.10906220227479935 0 0 0 0
2630000000 0.16897524893283844 0.08651188015937805 0.6197881698608398 -0.16939714550971985 0 0 0 0
2640000000 0.16953350603580475 0.06474350392818451 0.5986661911010742 -0.22433887422084808 0 0 0 0
2650000000 0.1647573858499527 0.04389612749218941 0.5730885863304138 -0.28092384338378906 0 0 0 0
2660000000 0.15438464283943176 0.023362357169389725 0.5411957502365112 -0.33354106545448303 0 0 0 0
2670000000 0.13919620215892792 0.005948088131844997 0.5080689787864685 -0.3789971172809601 0 0 0 0
2680000000 0.11973101645708084 -0.008775071240961552 0.46480128169059753 -0.4260961711406708 0 0 0 0
2690000000 0.09698349982500076 -0.01845279335975647 0.42362427711486816 -0.46510958671569824 0 0 0 0
2700000000 0.07233349233865738 -0.022307736799120903 0.37800294160842896 -0.4975626766681671 0 0 0 0
2710000000 0.047087185084819794 -0.02091175876557827 0.32840728759765625 -0.5311564803123474 0 0 0 0
2720000000 0.022217974066734314 -0.013733292929828167 0.27555304765701294 -0.5573843717575073 0 0 0 0
2730000000 -2.8763897716999054e-05 -0.0010197265073657036 0.22389960289001465 -0.5766282677650452 0 0 0 0
2740000000 -0.01860363595187664 0.016516046598553658 0.1656723916530609 -0.5952183604240417 0 0 0 0
2750000000 -0.03298311308026314 0.0368802435696125 0.10948901623487473 -0.6019192337989807 0 0 0 0
2760000000 -0.04234282299876213 0.05894815921783447 0.05614878237247467 -0.6043663620948792 0 0 0 0
2770000000 -0.046800676733255386 0.08287642896175385 0.005290329456329346 -0.6112009286880493 0 0 0 0
2780000000 -0.044479817152023315 0.10534900426864624 -0.0515361987054348 -0.6017619371414185 0 0 0 0
2790000000 -0.03777679428458214 0.12663720548152924 -0.10324780642986298 -0.5936347842216492 0 0 0 0
2800000000 -0.02649303898215294 0.14626391232013702 -0.15716545283794403 -0.5847142934799194 0 0 0 0
2810000000 -0.011644016019999981 0.1602153331041336 -0.20579567551612854 -0.5652575492858887 0 0 0 0
2820000000 0.00405888631939888 0.1704426109790802 -0.24869728088378906 -0.5471181869506836 0 0 0 0
2830000000 0.02705034613609314 0.17639875411987305 -0.30535486340522766 -0.5236260890960693 0 0 0 0
2840000000 0.044874440878629684 0.17635463178157806 -0.34485796093940735 -0.49557244777679443 0 0 0 0
2850000000 0.06374524533748627 0.17119106650352478 -0.3873911499977112 -0.4639264643192291 0 0 0 0
2860000000 0.08078160881996155 0.1623832881450653 -0.4282153248786926 -0.43271932005882263 0 0 0 0
2870000000 0.09404315054416656 0.1484934389591217 -0.4636898636817932 -0.39723119139671326 0 0 0 0
2880000000 0.10422748327255249 0.13120564818382263 -0.5007944107055664 -0.35378992557525635 0 0 0 0
2890000000 0.1100759357213974 0.11152559518814087 -0.5328517556190491 -0.3112074136734009 0 0 0 0
2900000000 0.11098092049360275 0.09105049818754196 -0.5634568333625793 -0.26349034905433655 0 0 0 0
2910000000 0.10663024336099625 0.07074738293886185 -0.5893476009368896 -0.21450044214725494 0 0 0 0
2920000000 0.09674230962991714 0.05151744186878204 -0.6099905371665955 -0.1643209159374237 0 0 0 0
2930000000 0.0830116868019104 0.03476063162088394 -0.6270983815193176 -0.10553334653377533 0 0 0 0
2940000000 0.06587064266204834 0.021613847464323044 -0.6392812132835388 -0.04838722571730614 0 0 0 0
2950000000 0.045998457819223404 0.013375548645853996 -0.6462101936340332 0.010916251689195633 0 0 0 0
2960000000 0.024645548313856125 0.009583941660821438 -0.6475775241851807 0.06944011151790619 0 0 0 0
2970000000 0.0034369314089417458 0.010756374336779118 -0.644410252571106 0.1275637298822403 0 0 0 0
2980000000 -0.01673129014670849 0.016244957223534584 -0.6334560513496399 0.1922796368598938 0 0 0 0
2990000000 -0.03440912440419197 0.025766070932149887 -0.6183540225028992 0.2506904900074005 0 0 0 0
3000000000 -0.04896249994635582 0.03846200183033943 -0.5981408953666687 0.3082777261734009 0 0 0 0
