# HZ S RI R 50
2000000000 0.3233923614025116 -0.1590660661458969 0.42676621675491333 0.5186464786529541 0 0 0 0
2010000000 0.28194180130958557 -0.20637254416942596 0.4901796579360962 0.4517439603805542 0 0 0 0
2020000000 0.2274499237537384 -0.24065130949020386 0.5463530421257019 0.39058998227119446 0 0 0 0
2030000000 0.16566184163093567 -0.26170024275779724 0.5931434035301208 0.32519736886024475 0 0 0 0
2040000000 0.10030797868967056 -0.2670714259147644 0.6313031315803528 0.2520589828491211 0 0 0 0
2050000000 0.02919532172381878 -0.2511194050312042 0.664655864238739 0.1743435114622116 0 0 0 0
2060000000 -0.03453158587217331 -0.21763469278812408 0.6855816841125488 0.08540626615285873 0 0 0 0
2070000000 -0.08866022527217865 -0.16765667498111725 0.6941686272621155 -0.0038017742335796356 0 0 0 0
2080000000 -0.12707337737083435 -0.10430216789245605 0.6900064945220947 -0.09420233219861984 0 0 0 0
2090000000 -0.1471574753522873 -0.03257385641336441 0.6735022664070129 -0.18034769594669342 0 0 0 0
2100000000 -0.14706791937351227 0.04147690534591675 0.6426079869270325 -0.26701971888542175 0 0 0 0
2110000000 -0.12786348164081573 0.11305829137563705 0.6015470027923584 -0.3501468002796173 0 0 0 0
2120000000 -0.09163941442966461 0.17381256818771362 0.5519697070121765 -0.41828152537345886 0 0 0 0
2130000000 -0.039307352155447006 0.22258788347244263 0.48648568987846375 -0.4867650270462036 0 0 0 0
2140000000 0.019442591816186905 0.2556183636188507 0.423289954662323 -0.539085865020752 0 0 0 0
2150000000 0.08265101909637451 0.2721985876560211 0.3546628952026367 -0.5824563503265381 0 0 0 0
2160000000 0.1472390592098236 0.2722640037536621 0.2775791585445404 -0.6225546598434448 0 0 0 0
2170000000 0.20745979249477386 0.25467777252197266 0.19997774064540863 -0.6470317244529724 0 0 0 0
2180000000 0.2590333819389343 0.22470979392528534 0.12217537313699722 -0.6644469499588013 0 0 0 0
2190000000 0.30122166872024536 0.18273690342903137 0.04044501110911369 -0.6742649078369141 0 0 0 0
2200000000 0.3293553590774536 0.1355588436126709 -0.0346452035009861 -0.67665696144104 0 0 0 0
2210000000 0.34479111433029175 0.07905834913253784 -0.12051858752965927 -0.6688821315765381 0 0 0 0
2220000000 0.3449007570743561 0.02537350356578827 -0.19875623285770416 -0.6536298394203186 0 0 0 0
2230000000 0.3313537538051605 -0.026783788576722145 -0.2772080600261688 -0.6304039359092712 0 0 0 0
2240000000 0.30494463443756104 -0.07224275171756744 -0.35292014479637146 -0.59807950258255 0 0 0 0
2250000000 0.2668844759464264 -0.11042368412017822 -0.43058496713638306 -0.5526537299156189 0 0 0 0
2260000000 0.22106827795505524 -0.13531313836574554 -0.5022723078727722 -0.4957929849624634 0 0 0 0
2270000000 0.1719048023223877 -0.14596489071846008 -0.564254641532898 -0.4331750273704529 0 0 0 0
2280000000 0.12216658890247345 -0.14361323416233063 -0.6207680702209473 -0.3588241934776306 0 0 0 0
2290000000 0.07703876495361328 -0.12580440938472748 -0.6644139289855957 -0.274776816368103 0 0 0 0
2300000000 0.039578329771757126 -0.09803580492734909 -0.6976940035820007 -0.1855049729347229 0 0 0 0
2310000000 0.013609752990305424 -0.06188761442899704 -0.7173482179641724 -0.0925719290971756 0 0 0 0
2320000000 -0.0002179965376853943 -0.022120090201497078 -0.7228652834892273 0.008129486814141273 0 0 0 0
2330000000 -0.001473420299589634 0.017565904185175896 -0.7149869203567505 0.09974285215139389 0 0 0 0
2340000000 0.00892458576709032 0.05270024389028549 -0.6932329535484314 0.19017331302165985 0 0 0 0
2350000000 0.028087042272090912 0.08054021745920181 -0.6595609784126282 0.2821781635284424 0 0 0 0
2360000000 0.05182020738720894 0.09945829212665558 -0.6155216097831726 0.36375269293785095 0 0 0 0
2370000000 0.07754345238208771 0.10896000266075134 -0.565000057220459 0.43440431356430054 0 0 0 0
2380000000 0.10384353995323181 0.10715001076459885 -0.4982210695743561 0.5049815773963928 0 0 0 0
2390000000 0.12471624463796616 0.09838712215423584 -0.4333375096321106 0.5593067407608032 0 0 0 0
2400000000 0.1407831311225891 0.08113870769739151 -0.35647934675216675 0.6108476519584656 0 0 0 0
2410000000 0.1473800539970398 0.0620834045112133 -0.27594342827796936 0.6473425030708313 0 0 0 0
2420000000 0.14544956386089325 0.041585590690374374 -0.19390064477920532 0.6758875250816345 0 0 0 0
2430000000 0.13543668389320374 0.021279798820614815 -0.10020241141319275 0.6935225129127502 0 0 0 0
2440000000 0.11791779845952988 0.007655179128050804 -0.012600860558450222 0.700432300567627 0 0 0 0
2450000000 0.09452319890260696 0.0005088634788990021 0.075621098279953 0.694575309753418 0 0 0 0
2460000000 0.06909573823213577 0.002379351295530796 0.17179244756698608 0.671271562576294 0 0 0 0
2470000000 0.044121380895376205 0.014356695115566254 0.25091448426246643 0.6469517946243286 0 0 0 0
2480000000 0.023170117288827896 0.03461887314915657 0.32935434579849243 0.6063040494918823 0 0 0 0
2490000000 0.009289312176406384 0.06230820715427399 0.4036918580532074 0.5546059608459473 0 0 0 0
2500000000 0.00590197928249836 0.0940261110663414 0.471366822719574 0.4902525246143341 0 0 0 0
2510000000 0.010642336681485176 0.12696288526058197 0.5279410481452942 0.4201878607273102 0 0 0 0
2520000000 0.02818251959979534 0.15638458728790283 0.5733609795570374 0.34420421719551086 0 0 0 0
2530000000 0.05340597778558731 0.18204163014888763 0.6051866412162781 0.26974788308143616 0 0 0 0
2540000000 0.08656302839517593 0.19734853506088257 0.6275665163993835 0.19062408804893494 0 0 0 0
2550000000 0.1246521845459938 0.20267684757709503 0.640272855758667 0.11075156927108765 0 0 0 0
2560000000 0.16352912783622742 0.19762803614139557 0.6430307626724243 0.03396070748567581 0 0 0 0
2570000000 0.20041531324386597 0.179393470287323 0.6378971934318542 -0.041946668177843094 0 0 0 0
2580000000 0.232247456908226 0.1502377986907959 0.6240084171295166 -0.11712955683469772 0 0 0 0
2590000000 0.2564956247806549 0.11112409085035324 0.6009072661399841 -0.1902400106191635 0 0 0 0
2600000000 0.26906347274780273 0.06450256705284119 0.5715243220329285 -0.26172566413879395 0 0 0 0
2610000000 0.2679908871650696 0.014965588226914406 0.5352960228919983 -0.32498008012771606 0 0 0 0
2620000000 0.2532218098640442 -0.03607036545872688 0.49148330092430115 -0.3862595558166504 0 0 0 0
2630000000 0.2238648384809494 -0.08313478529453278 0.44048336148262024 -0.4402945041656494 0 0 0 0
2640000000 0.18053439259529114 -0.12334547191858292 0.38190320134162903 -0.49210330843925476 0 0 0 0
2650000000 0.12614062428474426 -0.1492578387260437 0.31497207283973694 -0.5294204354286194 0 0 0 0
2660000000 0.06499359756708145 -0.16171059012413025 0.24927356839179993 -0.5616067051887512 0 0 0 0
2670000000 0.0021251924335956573 -0.15678894519805908 0.18393675982952118 -0.5818905234336853 0 0 0 0
2680000000 -0.061730239540338516 -0.13331301510334015 0.09776189923286438 -0.5951592326164246 0 0 0 0
2690000000 -0.11521738767623901 -0.09600842744112015 0.027819842100143433 -0.6003001928329468 0 0 0 0
2700000000 -0.15645533800125122 -0.04481496661901474 -0.04319131746888161 -0.5936121344566345 0 0 0 0
2710000000 -0.18347546458244324 0.016186505556106567 -0.11485827714204788 -0.573518693447113 0 0 0 0
2720000000 -0.19386811554431915 0.07956808805465698 -0.17282770574092865 -0.5558332204818726 0 0 0 0
2730000000 -0.18576304614543915 0.14505106210708618 -0.23729732632637024 -0.5249607563018799 0 0 0 0
2740000000 -0.16435492038726807 0.2048974633216858 -0.28943559527397156 -0.49650660157203674 0 0 0 0
2750000000 -0.1274040788412094 0.25351664423942566 -0.34371405839920044 -0.4508151412010193 0 0 0 0
2760000000 -0.0798472911119461 0.29407697916030884 -0.3853067457675934 -0.41377002000808716 0 0 0 0
2770000000 -0.024997306987643242 0.31972143054008484 -0.4252775013446808 -0.36733153462409973 0 0 0 0
2780000000 0.031298957765102386 0.32914096117019653 -0.45867377519607544 -0.3202090263366699 0 0 0 0
2790000000 0.09572511911392212 0.3237946033477783 -0.49393025040626526 -0.26300135254859924 0 0 0 0
2800000000 0.15236572921276093 0.30302104353904724 -0.5216140151023865 -0.2084779441356659 0 0 0 0
2810000000 0.19934414327144623 0.2702755033969879 -0.5406534075737 -0.15566617250442505 0 0 0 0
2820000000 0.23987509310245514 0.22233249247074127 -0.5576689839363098 -0.09453678876161575 0 0 0 0
2830000000 0.2657025158405304 0.17100559175014496 -0.5684381723403931 -0.035383325070142746 0 0 0 0
2840000000 0.2780597507953644 0.10700809955596924 -0.5729738473892212 0.033059343695640564 0 0 0 0
2850000000 0.272556334733963 0.0457552894949913 -0.5699046850204468 0.09861432760953903 0 0 0 0
2860000000 0.2513367533683777 -0.0106665575876832 -0.5617129802703857 0.15701401233673096 0 0 0 0
2870000000 0.21473631262779236 -0.06513641029596329 -0.5402799248695374 0.2302238792181015 0 0 0 0
2880000000 0.16801369190216064 -0.10363263636827469 -0.5163220167160034 0.2912236154079437 0 0 0 0
2890000000 0.11152636259794235 -0.1290365606546402 -0.480678528547287 0.35139569640159607 0 0 0 0
2900000000 0.05263415351510048 -0.13857458531856537 -0.43945205211639404 0.4073450267314911 0 0 0 0
2910000000 -0.00514143705368042 -0.13291427493095398 -0.3960447907447815 0.4550670087337494 0 0 0 0
2920000000 -0.05969803407788277 -0.11268149316310883 -0.33545950055122375 0.5032234191894531 0 0 0 0
2930000000 -0.10304201394319534 -0.08118477463722229 -0.2787984609603882 0.5406442284584045 0 0 0 0
2940000000 -0.13603071868419647 -0.04134814068675041 -0.21503648161888123 0.5712985396385193 0 0 0 0
2950000000 -0.1566167175769806 0.0032738707959651947 -0.1504092663526535 0.599200427532196 0 0 0 0
2960000000 -0.16492806375026703 0.047726694494485855 -0.08508219569921494 0.6147035956382751 0 0 0 0
2970000000 -0.16107450425624847 0.09199696034193039 -0.013687326572835445 0.6271622180938721 0 0 0 0
2980000000 -0.1464463174343109 0.13028991222381592 0.0621194951236248 0.6291638016700745 0 0 0 0
2990000000 -0.1233176738023758 0.1618167757987976 0.13519401848316193 0.6253599524497986 0 0 0 0
3000000000 -0.09543295949697495 0.18367061018943787 0.20590615272521973 0.6137266755104065 0 0 0 0
