# HZ S RI R 50
2000000000 0.18015488982200623 -0.03970812261104584 0.3752007782459259 0.2638472616672516 0 0 0 0
2010000000 0.1859102100133896 0.020306333899497986 0.033343225717544556 -0.4565598964691162 0 0 0 0
2020000000 0.14807277917861938 0.0075592296198010445 -0.4116416275501251 0.20488527417182922 0 0 0 0
2030000000 0.17759792506694794 -0.028749482706189156 0.38267257809638977 0.2546725273132324 0 0 0 0
2040000000 0.19924023747444153 -0.0012406427413225174 0.024355171248316765 -0.4611791968345642 0 0 0 0
2050000000 0.1599166989326477 -0.010686115361750126 -0.407511442899704 0.21441881358623505 0 0 0 0
2060000000 0.16153760254383087 -0.05117330327630043 0.39024990797042847 0.24404415488243103 0 0 0 0
2070000000 0.19198502600193024 -0.03642134368419647 0.010273913852870464 -0.45832201838493347 0 0 0 0
2080000000 0.14665533602237701 -0.026892509311437607 -0.4017984867095947 0.22651241719722748 0 0 0 0
2090000000 0.11794932186603546 -0.08180124312639236 0.3953827917575836 0.2382737249135971 0 0 0 0
2100000000 0.15569517016410828 -0.046439189463853836 -0.0024652862921357155 -0.45883655548095703 0 0 0 0
2110000000 0.08891110867261887 -0.026573797687888145 -0.399120956659317 0.2373816817998886 0 0 0 0
2120000000 0.08137952536344528 -0.03265896067023277 0.407895565032959 0.22202619910240173 0 0 0 0
2130000000 0.13431020081043243 -0.03659578412771225 -0.019022999331355095 -0.46085280179977417 0 0 0 0
2140000000 0.0867081880569458 0.010510735213756561 -0.3911955654621124 0.24941831827163696 0 0 0 0
2150000000 0.06054743751883507 -0.021790845319628716 0.4159803092479706 0.20723259449005127 0 0 0 0
2160000000 0.11304319649934769 -0.01343897357583046 -0.03492295742034912 -0.4643948972225189 0 0 0 0
2170000000 0.08411406725645065 0.043813783675432205 -0.3797771632671356 0.2646150588989258 0 0 0 0
2180000000 0.050538260489702225 -0.0006442936137318611 0.4228554368019104 0.19276879727840424 0 0 0 0
2190000000 0.09919440746307373 0.025774408131837845 -0.04737472161650658 -0.4616009593009949 0 0 0 0
2200000000 0.09832920879125595 0.07229151576757431 -0.3692030906677246 0.2773992121219635 0 0 0 0
2210000000 0.06793568283319473 0.03663044050335884 0.42820754647254944 0.17819844186306 0 0 0 0
2220000000 0.09703899919986725 0.02365729957818985 -0.06943754106760025 -0.4566343128681183 0 0 0 0
2230000000 0.09916569292545319 0.10216782987117767 -0.35648664832115173 0.2901441752910614 0 0 0 0
2240000000 0.07469284534454346 0.0827350839972496 0.4317569136619568 0.16073589026927948 0 0 0 0
2250000000 0.12822653353214264 0.06177280470728874 -0.08494040369987488 -0.45242226123809814 0 0 0 0
2260000000 0.14291489124298096 0.10903315991163254 -0.3448490798473358 0.2990293502807617 0 0 0 0
2270000000 0.10845822095870972 0.10280825197696686 0.4351074993610382 0.13986162841320038 0 0 0 0
2280000000 0.16509179770946503 0.05889076367020607 -0.09529943764209747 -0.44740283489227295 0 0 0 0
2290000000 0.18074211478233337 0.095518559217453 -0.3320850729942322 0.30865442752838135 0 0 0 0
2300000000 0.14922279119491577 0.08678915351629257 0.4365948736667633 0.1258922666311264 0 0 0 0
2310000000 0.17003512382507324 0.02587529458105564 -0.11008717864751816 -0.44212839007377625 0 0 0 0
2320000000 0.21328650414943695 0.07215362042188644 -0.31785616278648376 0.3166768550872803 0 0 0 0
2330000000 0.14269132912158966 0.036525908857584 0.43975552916526794 0.11506130546331406 0 0 0 0
2340000000 0.16493365168571472 0.02162397839128971 -0.12784238159656525 -0.4375438094139099 0 0 0 0
2350000000 0.20325155556201935 0.021754886955022812 -0.3074786365032196 0.3263653516769409 0 0 0 0
2360000000 0.14566132426261902 0.04390712082386017 0.4398217499256134 0.0947796031832695 0 0 0 0
2370000000 0.15945282578468323 -0.02896512672305107 -0.1360904723405838 -0.4274863302707672 0 0 0 0
2380000000 0.168443500995636 -0.012334240600466728 -0.29412952065467834 0.3375929892063141 0 0 0 0
2390000000 0.11294269561767578 0.019053181633353233 0.44129079580307007 0.08016134798526764 0 0 0 0
2400000000 0.10450322926044464 -0.013937866315245628 -0.15712332725524902 -0.4189736247062683 0 0 0 0
2410000000 0.15561075508594513 -0.017282813787460327 -0.2778792679309845 0.34440186619758606 0 0 0 0
2420000000 0.09840313345193863 0.02152489684522152 0.4383574426174164 0.0644817054271698 0 0 0 0
2430000000 0.06570158153772354 -0.03547481819987297 -0.16972582042217255 -0.40757110714912415 0 0 0 0
2440000000 0.09922874718904495 -0.011430129408836365 -0.2627258896827698 0.3519861102104187 0 0 0 0
2450000000 0.061049673706293106 0.038818322122097015 0.43481409549713135 0.04879293218255043 0 0 0 0
2460000000 0.022532405331730843 0.015439215116202831 -0.18454387784004211 -0.3962068259716034 0 0 0 0
2470000000 0.08380261808633804 0.017146779224276543 -0.24716083705425262 0.35408660769462585 0 0 0 0
2480000000 0.05000381916761398 0.08212347328662872 0.4279681444168091 0.03140586242079735 0 0 0 0
2490000000 0.03171135485172272 0.04606292396783829 -0.19228807091712952 -0.38276341557502747 0 0 0 0
2500000000 0.06697073578834534 0.042938049882650375 -0.2309647649526596 0.3575533330440521 0 0 0 0
2510000000 0.06585405021905899 0.09940025955438614 0.42115938663482666 0.012812720611691475 0 0 0 0
2520000000 0.02531125769019127 0.08042798191308975 -0.2040155977010727 -0.3640522360801697 0 0 0 0
2530000000 0.06413573771715164 0.06109336018562317 -0.21154338121414185 0.3589670658111572 0 0 0 0
2540000000 0.08267997950315475 0.12306030839681625 0.4116268754005432 -0.001629847101867199 0 0 0 0
2550000000 0.0299230869859457 0.10658922791481018 -0.21027247607707977 -0.35247617959976196 0 0 0 0
2560000000 0.07192134112119675 0.08417284488677979 -0.19821815192699432 0.35800403356552124 0 0 0 0
2570000000 0.09949664771556854 0.14192351698875427 0.40200191736221313 -0.009259335696697235 0 0 0 0
2580000000 0.05855148285627365 0.13812655210494995 -0.21281249821186066 -0.33807846903800964 0 0 0 0
2590000000 0.10796936601400375 0.09566137194633484 -0.18581870198249817 0.3527742922306061 0 0 0 0
2600000000 0.13912571966648102 0.1312076300382614 0.39373818039894104 -0.015960456803441048 0 0 0 0
2610000000 0.10880041122436523 0.12488541007041931 -0.2127380073070526 -0.3305252194404602 0 0 0 0
2620000000 0.1106196865439415 0.05590609461069107 -0.17494916915893555 0.35120904445648193 0 0 0 0
2630000000 0.1582876294851303 0.0898970514535904 0.3863132894039154 -0.02199487015604973 0 0 0 0
2640000000 0.07762298732995987 0.1039656475186348 -0.21977126598358154 -0.31954440474510193 0 0 0 0
2650000000 0.11545629054307938 0.061712540686130524 -0.16897208988666534 0.34690219163894653 0 0 0 0
2660000000 0.149897500872612 0.06710279732942581 0.38063907623291016 -0.027239574119448662 0 0 0 0
2670000000 0.10035938769578934 0.09971815347671509 -0.21240539848804474 -0.3138364851474762 0 0 0 0
2680000000 0.10606636106967926 0.029672298580408096 -0.1603873074054718 0.3421873152256012 0 0 0 0
2690000000 0.14685051143169403 0.031929995864629745 0.3736172914505005 -0.033764831721782684 0 0 0 0
2700000000 0.08765776455402374 0.07013247162103653 -0.2148933857679367 -0.30597373843193054 0 0 0 0
2710000000 0.07768870890140533 -0.0019326554611325264 -0.15780866146087646 0.3395993113517761 0 0 0 0
2720000000 0.09736407548189163 0.009695971384644508 0.3701693117618561 -0.03202333301305771 0 0 0 0
2730000000 0.06391521543264389 0.05525882914662361 -0.2169594019651413 -0.30023303627967834 0 0 0 0
2740000000 0.014422677457332611 0.009728134609758854 -0.14833484590053558 0.3354346752166748 0 0 0 0
2750000000 0.07553184777498245 0.02272358536720276 0.36502984166145325 -0.035086944699287415 0 0 0 0
2760000000 0.043991632759571075 0.05801216885447502 -0.21457943320274353 -0.29676705598831177 0 0 0 0
2770000000 -0.005694147199392319 0.02467694878578186 -0.14632035791873932 0.3319059908390045 0 0 0 0
2780000000 0.042154449969530106 0.007868021726608276 0.36166539788246155 -0.03607019782066345 0 0 0 0
2790000000 0.004525952041149139 0.06303505599498749 -0.21272322535514832 -0.2942233383655548 0 0 0 0
2800000000 -0.049163926392793655 0.06023740768432617 -0.14909562468528748 0.326293408870697 0 0 0 0
2810000000 0.007738075219094753 0.03439439833164215 0.35961079597473145 -0.03600452095270157 0 0 0 0
2820000000 -0.005153105594217777 0.10088449716567993 -0.2084864228963852 -0.29319247603416443 0 0 0 0
2830000000 -0.06834715604782104 0.0871976763010025 -0.14584706723690033 0.324735552072525 0 0 0 0
2840000000 -0.016080429777503014 0.08616117388010025 0.3594469428062439 -0.03408702835440636 0 0 0 0
2850000000 0.004996516741812229 0.1406402587890625 -0.2044166773557663 -0.29647332429885864 0 0 0 0
2860000000 -0.04615439102053642 0.13446198403835297 -0.15069124102592468 0.3266785144805908 0 0 0 0
2870000000 -0.00385272316634655 0.09815075993537903 0.3617279529571533 -0.033587682992219925 0 0 0 0
2880000000 0.023223888128995895 0.16804882884025574 -0.204905703663826 -0.29785799980163574 0 0 0 0
2890000000 -0.015818659216165543 0.1546192765235901 -0.15503211319446564 0.32813483476638794 0 0 0 0
2900000000 0.021074678748846054 0.1165769100189209 0.3672039210796356 -0.02572036162018776 0 0 0 0
2910000000 0.0574236661195755 0.15918666124343872 -0.2065974473953247 -0.3037795126438141 0 0 0 0
2920000000 0.011786011978983879 0.15041494369506836 -0.16091416776180267 0.33302614092826843 0 0 0 0
2930000000 0.04293113201856613 0.11733055859804153 0.3742370903491974 -0.0307211522012949 0 0 0 0
2940000000 0.07225316762924194 0.12137369066476822 -0.21464195847511292 -0.3124767541885376 0 0 0 0
2950000000 0.038704730570316315 0.16148653626441956 -0.1608908772468567 0.3402186334133148 0 0 0 0
2960000000 0.042421188205480576 0.09485851973295212 0.3822052776813507 -0.028999831527471542 0 0 0 0
2970000000 0.12276775389909744 0.11495321989059448 -0.21907272934913635 -0.3144274652004242 0 0 0 0
2980000000 0.05872296914458275 0.09621173143386841 -0.1663450300693512 0.35217520594596863 0 0 0 0
2990000000 0.053182508796453476 0.06437733769416809 0.3931073546409607 -0.03788888826966286 0 0 0 0
3000000000 0.09107179194688797 0.037127796560525894 -0.22628243267536163 -0.3264939785003662 0 0 0 0
