# HZ S RI R 50
2000000000 0.1143975630402565 0.009560651145875454 0.1331881284713745 -0.35665419697761536 0 0 0 0
2010000000 0.1398164927959442 0.006267203949391842 0.1627233475446701 0.34280967712402344 0 0 0 0
2020000000 0.12386292964220047 -0.011939739808440208 -0.35784584283828735 -0.12824580073356628 0 0 0 0
2030000000 0.09985991567373276 0.022267494350671768 0.3415341079235077 -0.16526329517364502 0 0 0 0
2040000000 0.1301906406879425 0.03327515721321106 -0.119280144572258 0.3605613708496094 0 0 0 0
2050000000 0.15021972358226776 0.019967159256339073 -0.16956089437007904 -0.3364742696285248 0 0 0 0
2060000000 0.13172072172164917 -0.003183874301612377 0.3601817190647125 0.11610525846481323 0 0 0 0
2070000000 0.12989754974842072 0.02752736024558544 -0.33516445755958557 0.17467719316482544 0 0 0 0
2080000000 0.15674088895320892 0.02809712290763855 0.11137542128562927 -0.3592989146709442 0 0 0 0
2090000000 0.15386487543582916 0.0034986864775419235 0.17672418057918549 0.3324877917766571 0 0 0 0
2100000000 0.15119300782680511 0.006139663979411125 -0.36235418915748596 -0.10522610694169998 0 0 0 0
2110000000 0.14493045210838318 0.01727364957332611 0.32874029874801636 -0.18523350358009338 0 0 0 0
2120000000 0.15991252660751343 0.019571658223867416 -0.10065647959709167 0.3617842197418213 0 0 0 0
2130000000 0.15499788522720337 -0.005605854094028473 -0.18945078551769257 -0.32578933238983154 0 0 0 0
2140000000 0.13074733316898346 -0.0018899599090218544 0.3650861978530884 0.09475687146186829 0 0 0 0
2150000000 0.1361009031534195 0.013747951947152615 -0.3226320147514343 0.1944216638803482 0 0 0 0
2160000000 0.15547168254852295 0.012800786644220352 0.0824446827173233 -0.36667704582214355 0 0 0 0
2170000000 0.14708691835403442 -0.00636368989944458 0.19916269183158875 0.31935614347457886 0 0 0 0
2180000000 0.12992404401302338 -0.002295497804880142 -0.3679984509944916 -0.08137194067239761 0 0 0 0
2190000000 0.14016585052013397 0.016947582364082336 0.31477874517440796 -0.20619651675224304 0 0 0 0
2200000000 0.150130495429039 -0.002229074016213417 -0.07410500943660736 0.3682420551776886 0 0 0 0
2210000000 0.13578470051288605 -0.016580453142523766 -0.21176713705062866 -0.3107318580150604 0 0 0 0
2220000000 0.09642672538757324 -0.004885810427367687 0.37042471766471863 0.06737956404685974 0 0 0 0
2230000000 0.12386929243803024 0.019473087042570114 -0.30584916472435 0.21758413314819336 0 0 0 0
2240000000 0.11724995821714401 0.006153130903840065 0.061411891132593155 -0.37058088183403015 0 0 0 0
2250000000 0.09691328555345535 -0.007518516853451729 0.22578996419906616 0.3002139925956726 0 0 0 0
2260000000 0.08839596062898636 0.02230343036353588 -0.3712112009525299 -0.050095535814762115 0 0 0 0
2270000000 0.10011821985244751 0.04499862343072891 0.2950091063976288 -0.22838732600212097 0 0 0 0
2280000000 0.11667177826166153 0.024203965440392494 -0.04405792057514191 0.3703163266181946 0 0 0 0
2290000000 0.08803118020296097 0.02512645535171032 -0.23503738641738892 -0.2898646295070648 0 0 0 0
2300000000 0.09211109578609467 0.05054815113544464 0.36980172991752625 0.03447849676012993 0 0 0 0
2310000000 0.11294113099575043 0.06166581064462662 -0.28124484419822693 0.23948213458061218 0 0 0 0
2320000000 0.11999215185642242 0.038615092635154724 0.029593275859951973 -0.3675655126571655 0 0 0 0
2330000000 0.09879328310489655 0.044761840254068375 0.2443242371082306 0.2756703794002533 0 0 0 0
2340000000 0.10311175137758255 0.07351905852556229 -0.3661452531814575 -0.018342819064855576 0 0 0 0
2350000000 0.1269219070672989 0.0672026202082634 0.2684604525566101 -0.24703633785247803 0 0 0 0
2360000000 0.1235535517334938 0.05687432736158371 -0.012978175655007362 0.36339396238327026 0 0 0 0
2370000000 0.11316836625337601 0.06221339479088783 -0.2507524788379669 -0.26228368282318115 0 0 0 0
2380000000 0.11584320664405823 0.0859634280204773 0.3601280748844147 0.003507835790514946 0 0 0 0
2390000000 0.14134597778320312 0.0696602463722229 -0.2545931041240692 0.25312164425849915 0 0 0 0
2400000000 0.12326306104660034 0.044559355825185776 -0.004664991982281208 -0.35854774713516235 0 0 0 0
2410000000 0.1263854056596756 0.0645618811249733 0.2565933167934418 0.24677090346813202 0 0 0 0
2420000000 0.13592635095119476 0.07829849421977997 -0.3537304997444153 0.009333265945315361 0 0 0 0
2430000000 0.1472998857498169 0.05205504596233368 0.24095419049263 -0.257129043340683 0 0 0 0
2440000000 0.13721801340579987 0.029917923733592033 0.014755860902369022 0.3508072793483734 0 0 0 0
2450000000 0.11422638595104218 0.04251066595315933 -0.2611502408981323 -0.2333795577287674 0 0 0 0
2460000000 0.13234126567840576 0.05513095483183861 0.3471871614456177 -0.023020248860120773 0 0 0 0
2470000000 0.14798566699028015 0.030476827174425125 -0.2279517501592636 0.25908395648002625 0 0 0 0
2480000000 0.11992857605218887 0.0209658145904541 -0.02890467830002308 -0.34297510981559753 0 0 0 0
2490000000 0.09581472724676132 0.020329264923930168 0.26360800862312317 0.21981459856033325 0 0 0 0
2500000000 0.10772579908370972 0.04216427356004715 -0.3391890525817871 0.033124107867479324 0 0 0 0
2510000000 0.11850499361753464 0.03610537201166153 0.20821553468704224 -0.2664251923561096 0 0 0 0
2520000000 0.09243932366371155 0.01331224013119936 0.04130346328020096 0.3350122272968292 0 0 0 0
2530000000 0.07089214771986008 0.0429331436753273 -0.266795814037323 -0.20202942192554474 0 0 0 0
2540000000 0.08961641788482666 0.04015476256608963 0.32902348041534424 -0.04822909086942673 0 0 0 0
2550000000 0.07820019125938416 0.021004600450396538 -0.19487127661705017 0.2667827904224396 0 0 0 0
2560000000 0.0636562630534172 0.04037908837199211 -0.05227810889482498 -0.32479968667030334 0 0 0 0
2570000000 0.0577443465590477 0.05190574377775192 0.265304833650589 0.18858817219734192 0 0 0 0
2580000000 0.06972134113311768 0.060759223997592926 -0.31818610429763794 0.05538268759846687 0 0 0 0
2590000000 0.05327017977833748 0.044033732265233994 0.1834227293729782 -0.2636871635913849 0 0 0 0
2600000000 0.031445011496543884 0.04613812267780304 0.058255985379219055 0.3126143217086792 0 0 0 0
2610000000 0.036179572343826294 0.08996365964412689 -0.26060301065444946 -0.17665888369083405 0 0 0 0
2620000000 0.053644340485334396 0.08613704890012741 0.30728575587272644 -0.05977766588330269 0 0 0 0
2630000000 0.04527473822236061 0.08430162072181702 -0.17312170565128326 0.2586299777030945 0 0 0 0
2640000000 0.028557999059557915 0.10953927040100098 -0.0644732266664505 -0.30011293292045593 0 0 0 0
2650000000 0.061465516686439514 0.11842562258243561 0.2544887363910675 0.16883933544158936 0 0 0 0
2660000000 0.08074120432138443 0.11306387186050415 -0.29728853702545166 0.061383653432130814 0 0 0 0
2670000000 0.06595394760370255 0.09786497801542282 0.1686304807662964 -0.25181686878204346 0 0 0 0
2680000000 0.06578131020069122 0.11396116763353348 0.06354445219039917 0.2937171161174774 0 0 0 0
2690000000 0.08635859191417694 0.12582938373088837 -0.24990980327129364 -0.161153644323349 0 0 0 0
2700000000 0.08878722041845322 0.10703738778829575 0.29008275270462036 -0.05986219272017479 0 0 0 0
2710000000 0.08224299550056458 0.08784302324056625 -0.16101782023906708 0.24614198505878448 0 0 0 0
2720000000 0.08571189641952515 0.11259577423334122 -0.05976797640323639 -0.28765353560447693 0 0 0 0
2730000000 0.1112542599439621 0.10645237565040588 0.24517862498760223 0.1578688621520996 0 0 0 0
2740000000 0.11747673153877258 0.06960008293390274 -0.28391727805137634 0.06076984852552414 0 0 0 0
2750000000 0.07761215418577194 0.06544751673936844 0.15961432456970215 -0.24179963767528534 0 0 0 0
2760000000 0.07931440323591232 0.07905002683401108 0.05813140049576759 0.2811986207962036 0 0 0 0
2770000000 0.09928525239229202 0.07424414902925491 -0.23887388408184052 -0.16091220080852509 0 0 0 0
2780000000 0.09121140837669373 0.04676611348986626 0.2811053991317749 -0.057323526591062546 0 0 0 0
2790000000 0.05893122777342796 0.042281653732061386 -0.1574103832244873 0.23880773782730103 0 0 0 0
2800000000 0.05081227794289589 0.058034561574459076 -0.05494052916765213 -0.2821190059185028 0 0 0 0
2810000000 0.07417283207178116 0.05399099737405777 0.2371327430009842 0.15927857160568237 0 0 0 0
2820000000 0.05857708305120468 0.026716165244579315 -0.280307799577713 0.05405884236097336 0 0 0 0
2830000000 0.03036673180758953 0.03834213688969612 0.16219981014728546 -0.23250067234039307 0 0 0 0
2840000000 0.01805153861641884 0.05359712615609169 0.054301559925079346 0.2794521749019623 0 0 0 0
2850000000 0.027395207434892654 0.046074580401182175 -0.235504150390625 -0.1633206456899643 0 0 0 0
2860000000 0.007055302150547504 0.030251631513237953 0.28159189224243164 -0.04942400008440018 0 0 0 0
2870000000 -0.011437508277595043 0.04398379102349281 -0.16233354806900024 0.2349305897951126 0 0 0 0
2880000000 -0.011174737475812435 0.06991445273160934 -0.04913086071610451 -0.2814396619796753 0 0 0 0
2890000000 -0.008900872431695461 0.07085753977298737 0.23599357903003693 0.16532732546329498 0 0 0 0
2900000000 -0.027340343222022057 0.056701142340898514 -0.28449103236198425 0.04763391986489296 0 0 0 0
2910000000 -0.04138077795505524 0.09640634059906006 0.1678413301706314 -0.23621508479118347 0 0 0 0
2920000000 -0.022328799590468407 0.09995641559362411 0.047104936093091965 0.287151962518692 0 0 0 0
2930000000 -0.013371978886425495 0.09350207448005676 -0.23733830451965332 -0.17154166102409363 0 0 0 0
2940000000 -0.037009842693805695 0.08894715458154678 0.29041552543640137 -0.04843853786587715 0 0 0 0
2950000000 -0.03712043911218643 0.11456210911273956 -0.1761959195137024 0.23885038495063782 0 0 0 0
2960000000 -0.013367143459618092 0.129550039768219 -0.04570901021361351 -0.29440176486968994 0 0 0 0
2970000000 -0.009202125482261181 0.11905097961425781 0.2432475984096527 0.17695748805999756 0 0 0 0
2980000000 -0.016168175265192986 0.12210065126419067 -0.2990044951438904 0.047482363879680634 0 0 0 0
2990000000 -0.01771431788802147 0.14644798636436462 0.17885859310626984 -0.2459731101989746 0 0 0 0
3000000000 0.01790158450603485 0.14129605889320374 0.044877830892801285 0.30309179425239563 0 0 0 0
