# HZ S RI R 50
2000000000 0.1528511941432953 0.015574764460325241 0.05831083655357361 -0.5029160380363464 0 0 0 0
2010000000 0.20434339344501495 -0.024073857814073563 -0.26200875639915466 -0.428580641746521 0 0 0 0
2020000000 0.1725524216890335 -0.0913134515285492 -0.4723721146583557 -0.17714348435401917 0 0 0 0
2030000000 0.09655123203992844 -0.08147379755973816 -0.4833177328109741 0.15487352013587952 0 0 0 0
2040000000 0.08725568652153015 -0.012112113647162914 -0.27820155024528503 0.42582762241363525 0 0 0 0
2050000000 0.14626893401145935 0.0024907104671001434 0.04077471047639847 0.5061701536178589 0 0 0 0
2060000000 0.1596086621284485 -0.0593443289399147 0.34582656621932983 0.3692214787006378 0 0 0 0
2070000000 0.08919109404087067 -0.08882254362106323 0.502227246761322 0.07742822915315628 0 0 0 0
2080000000 0.03251722455024719 -0.025270728394389153 0.4427303075790405 -0.2536119520664215 0 0 0 0
2090000000 0.070725217461586 0.0448235459625721 0.18593798577785492 -0.47289326786994934 0 0 0 0
2100000000 0.13202500343322754 0.027972154319286346 -0.1434980034828186 -0.4863693416118622 0 0 0 0
2110000000 0.1159088984131813 -0.026017723605036736 -0.4160030484199524 -0.29300644993782043 0 0 0 0
2120000000 0.05155671015381813 -0.008675423450767994 -0.510053277015686 0.03275732323527336 0 0 0 0
2130000000 0.053677164018154144 0.06879942864179611 -0.3758014142513275 0.34172937273979187 0 0 0 0
2140000000 0.12570440769195557 0.0912242904305458 -0.08060824126005173 0.4978775382041931 0 0 0 0
2150000000 0.16071154177188873 0.035785429179668427 0.24157769978046417 0.44484245777130127 0 0 0 0
2160000000 0.11244048923254013 7.633864879608154e-05 0.4702274203300476 0.19951018691062927 0 0 0 0
2170000000 0.07065374404191971 0.051295775920152664 0.49094006419181824 -0.13884565234184265 0 0 0 0
2180000000 0.11627199500799179 0.10957604646682739 0.2938447594642639 -0.4108418822288513 0 0 0 0
2190000000 0.18568618595600128 0.0836184173822403 -0.026258083060383797 -0.5014573335647583 0 0 0 0
2200000000 0.18069157004356384 0.017054665833711624 -0.32809188961982727 -0.38411685824394226 0 0 0 0
2210000000 0.12089068442583084 0.013315976597368717 -0.49972620606422424 -0.09839938580989838 0 0 0 0
2220000000 0.11513808369636536 0.0724872350692749 -0.4473942816257477 0.23997566103935242 0 0 0 0
2230000000 0.178595632314682 0.08939489722251892 -0.20050404965877533 0.46108773350715637 0 0 0 0
2240000000 0.21285469830036163 0.02874593436717987 0.1288079023361206 0.48512864112854004 0 0 0 0
2250000000 0.16684085130691528 -0.021076951175928116 0.4028822183609009 0.3060706555843353 0 0 0 0
2260000000 0.11540504544973373 0.01078865583986044 0.508205235004425 -0.010570448823273182 0 0 0 0
2270000000 0.1412363201379776 0.058622248470783234 0.3852574825286865 -0.3282190263271332 0 0 0 0
2280000000 0.19324056804180145 0.03464244678616524 0.09735829383134842 -0.49240145087242126 0 0 0 0
2290000000 0.1780681163072586 -0.028419291600584984 -0.23031185567378998 -0.4476463496685028 0 0 0 0
2300000000 0.11149656772613525 -0.032266877591609955 -0.4599240720272064 -0.21160826086997986 0 0 0 0
2310000000 0.09420949965715408 0.026688408106565475 -0.4906763434410095 0.12198187410831451 0 0 0 0
2320000000 0.1449929028749466 0.04499240219593048 -0.3031816780567169 0.4009757936000824 0 0 0 0
2330000000 0.16641385853290558 -0.00936257652938366 0.01033238135278225 0.5013830065727234 0 0 0 0
2340000000 0.10814536362886429 -0.048912566155195236 0.31860387325286865 0.3871264159679413 0 0 0 0
2350000000 0.046701833605766296 -0.0022336402907967567 0.4907373785972595 0.1026274636387825 0 0 0 0
2360000000 0.06930673122406006 0.06418033689260483 0.4454919099807739 -0.22423934936523438 0 0 0 0
2370000000 0.1267947107553482 0.05564621463418007 0.20630629360675812 -0.45067235827445984 0 0 0 0
2380000000 0.11880963295698166 0.0019039912149310112 -0.11717443913221359 -0.48259371519088745 0 0 0 0
2390000000 0.05548640340566635 0.004977445118129253 -0.39425361156463623 -0.3012831211090088 0 0 0 0
2400000000 0.041163306683301926 0.07422129809856415 -0.49184730648994446 0.008963883854448795 0 0 0 0
2410000000 0.1004001647233963 0.10697206109762192 -0.37553706765174866 0.3091200590133667 0 0 0 0
2420000000 0.14113660156726837 0.061512839049100876 -0.10471910238265991 0.4739408493041992 0 0 0 0
2430000000 0.10201932489871979 0.018262721598148346 0.21426738798618317 0.4375650882720947 0 0 0 0
2440000000 0.05103348568081856 0.05471542850136757 0.43986254930496216 0.2043609470129013 0 0 0 0
2450000000 0.0758015364408493 0.11679694056510925 0.4666048288345337 -0.10830482840538025 0 0 0 0
2460000000 0.14159159362316132 0.10815044492483139 0.2959006726741791 -0.37216824293136597 0 0 0 0
2470000000 0.1504496932029724 0.04725394397974014 0.003930473700165749 -0.4739474952220917 0 0 0 0
2480000000 0.09669137746095657 0.028923582285642624 -0.2944309115409851 -0.37296828627586365 0 0 0 0
2490000000 0.07370755076408386 0.07839653640985489 -0.4605374038219452 -0.10719852149486542 0 0 0 0
2500000000 0.11923988163471222 0.1063794493675232 -0.42339080572128296 0.19809459149837494 0 0 0 0
2510000000 0.15629549324512482 0.06240265443921089 -0.20268557965755463 0.41662782430648804 0 0 0 0
2520000000 0.12008992582559586 0.014677776023745537 0.09794246405363083 0.4543837308883667 0 0 0 0
2530000000 0.06562355160713196 0.03862397000193596 0.3596782088279724 0.2904563248157501 0 0 0 0
2540000000 0.07729459553956985 0.09442512691020966 0.4580901861190796 0.005442485213279724 0 0 0 0
2550000000 0.13026897609233856 0.09171611815690994 0.36173611879348755 -0.27397647500038147 0 0 0 0
2560000000 0.13636793196201324 0.03559631481766701 0.11161060631275177 -0.43901360034942627 0 0 0 0
2570000000 0.0827811062335968 0.01856258325278759 -0.1839882880449295 -0.41081804037094116 0 0 0 0
2580000000 0.05634484440088272 0.06598002463579178 -0.3970511257648468 -0.20603759586811066 0 0 0 0
2590000000 0.09745877981185913 0.09626749157905579 -0.4350978136062622 0.0823226198554039 0 0 0 0
2600000000 0.13302786648273468 0.05720257759094238 -0.2928244471549988 0.32956865429878235 0 0 0 0
2610000000 0.09765288233757019 0.005589088425040245 -0.023167282342910767 0.43955424427986145 0 0 0 0
2620000000 0.035494375973939896 0.024988273158669472 0.25152823328971863 0.355237752199173 0 0 0 0
2630000000 0.033467892557382584 0.08535896241664886 0.41362258791923523 0.12276533991098404 0 0 0 0
2640000000 0.08138856291770935 0.09806839376688004 0.39950883388519287 -0.15489481389522552 0 0 0 0
2650000000 0.09741190075874329 0.057007595896720886 0.22022302448749542 -0.3670552372932434 0 0 0 0
2660000000 0.05663105472922325 0.03697745501995087 -0.05730731412768364 -0.4220162630081177 0 0 0 0
2670000000 0.027951035648584366 0.0739225298166275 -0.3016833961009979 -0.293854683637619 0 0 0 0
2680000000 0.055915188044309616 0.1048373207449913 -0.41616061329841614 -0.045036520808935165 0 0 0 0
2690000000 0.08640320599079132 0.08212672173976898 -0.3553219735622406 0.21876323223114014 0 0 0 0
2700000000 0.06170130893588066 0.04896930232644081 -0.14719586074352264 0.38986754417419434 0 0 0 0
2710000000 0.018748873844742775 0.07182348519563675 0.1293121576309204 0.39381468296051025 0 0 0 0
2720000000 0.029546597972512245 0.1234033852815628 0.3374207317829132 0.22972838580608368 0 0 0 0
2730000000 0.08218313008546829 0.12822043895721436 0.40460672974586487 -0.023800447583198547 0 0 0 0
2740000000 0.10035105049610138 0.07922516018152237 0.3057009279727936 -0.2652757465839386 0 0 0 0
2750000000 0.05930672213435173 0.05265217646956444 0.07940737158060074 -0.3991963267326355 0 0 0 0
2760000000 0.027084236964583397 0.08600834757089615 -0.1846805065870285 -0.35948270559310913 0 0 0 0
2770000000 0.053938526660203934 0.12303932011127472 -0.36416739225387573 -0.17362041771411896 0 0 0 0
2780000000 0.09413179755210876 0.10230954736471176 -0.39118415117263794 0.08620094507932663 0 0 0 0
2790000000 0.08500496298074722 0.05814683437347412 -0.2573589086532593 0.3085367679595947 0 0 0 0
2800000000 0.04419040307402611 0.05599652975797653 -0.015360977500677109 0.3995591998100281 0 0 0 0
2810000000 0.03838163986802101 0.08940514177083969 0.2368408739566803 0.3236504793167114 0 0 0 0
2820000000 0.07072830945253372 0.09317893534898758 0.3847966194152832 0.10881025344133377 0 0 0 0
2830000000 0.07965272665023804 0.05385148152709007 0.3718222379684448 -0.14699356257915497 0 0 0 0
2840000000 0.03806028142571449 0.02992813102900982 0.20572544634342194 -0.3438865840435028 0 0 0 0
2850000000 0.0024208100512623787 0.06028583645820618 -0.047455791383981705 -0.39762526750564575 0 0 0 0
2860000000 0.02005612663924694 0.0963059514760971 -0.2800793945789337 -0.28848686814308167 0 0 0 0
2870000000 0.05605718493461609 0.08032075315713882 -0.4004778265953064 -0.04972003400325775 0 0 0 0
2880000000 0.0441167987883091 0.03686291724443436 -0.34926164150238037 0.2036726027727127 0 0 0 0
2890000000 -0.006276550702750683 0.0324566587805748 -0.15314847230911255 0.37340614199638367 0 0 0 0
2900000000 -0.029506107792258263 0.07377363741397858 0.10981917381286621 0.3912894129753113 0 0 0 0
2910000000 -0.006670144386589527 0.10116138309240341 0.3269999921321869 0.24547480046749115 0 0 0 0
2920000000 0.014282611198723316 0.08600463718175888 0.41316476464271545 -0.00989921111613512 0 0 0 0
2930000000 -0.005029486492276192 0.06654880195856094 0.3233972489833832 -0.26172956824302673 0 0 0 0
2940000000 -0.03128984943032265 0.08449973911046982 0.09158853441476822 -0.40306252241134644 0 0 0 0
2950000000 -0.02307634986937046 0.11637045443058014 -0.1747751533985138 -0.3788636326789856 0 0 0 0
2960000000 0.00515381246805191 0.11702361702919006 -0.374824583530426 -0.19684641063213348 0 0 0 0
2970000000 0.007323422469198704 0.0916890799999237 -0.4213162660598755 0.07931848615407944 0 0 0 0
2980000000 -0.020847197622060776 0.08891304582357407 -0.2861661911010742 0.3222818672657013 0 0 0 0
2990000000 -0.031467098742723465 0.12006521224975586 -0.025668887421488762 0.4310501217842102 0 0 0 0
3000000000 -0.005131817422807217 0.14217862486839294 0.24409370124340057 0.35858526825904846 0 0 0 0
